write to 0x70 ack data: 0xEE 0x06 0x00 0x00 0x00
write to 0x70 ack data: 0xEA 0xFF 0xFF 0x88 0x01
write to 0x70 ack data: 0xEB 0x14 0x0C 0x00 0x01
write to 0x70 ack data: 0xE8 0x08 0x0A 0x00 0x00
write to 0x70 ack data: 0xE8 0x08 0x0A 0x36 0x0D
write to 0x70 ack data: 0xED 0x04 0x23 0x7F 0x01
write to 0x70 ack data: 0xE8 0x08 0xFF 0x00 0x00
write to 0x70 ack data: 0xEA 0x0F 0x00 0x00 0x00
write to 0x70 ack data: 0xED 0x10 0x01 0x00 0x00
write to 0x70 ack data: 0xE7 0x30 0x00 0x00 0x00
write to 0x70 ack data: 0xED 0x05 0x13 0x00 0x00
write to 0x70 ack data: 0x10 0x00 0x00 0x00 0x00 0x00 0x00 0x00 0x00 0x00 0x00 0x00 0x00 0x00 0x00 0x00 0x00 0x00 0x00 0x00 0x00 0x00 0x00 0x00 0x00 0x00 0x00 0x00 0x80 0x0F 0x00 0x00 0x00 0x80 0x0F 0x00 0x00 0x04 0x00 0x40 0x00 0x00 0x00 0x80 0x0F 0x00 0x00 0x00 0x80 0x0F 0x00 0x00 0x00 0x00 0x00 0x00 0x00 0x00 0x00 0x00 0x00 0x00 0x00 0x00 0x00 0x00 0x00 0x00 0x00 0x00 0x00 0x00 0x00 0x00 0x00 0x00 0x00 0x00 0x00 0x00 0x00 0x00
write to 0x70 ack data: 0xED 0x05 0x15 0x00 0x00
write to 0x70 ack data: 0x10 0x00 0x00 0x00 0x00 0x00 0x00 0x00 0x00 0x00 0x00 0x00 0x00 0x00 0x00 0x00 0x00 0x71 0xD7 0x1A 0x63 0x04 0x8E 0x10 0xC2 0x00 0x01 0x8E 0x10 0x42 0x08 0x03 0x8E 0x10 0x42 0x08 0x03 0x49 0x31 0x95 0x10 0x02 0x2E 0xC6 0xE8 0x00 0x00 0xB1 0xD6 0xAA 0x01 0x00 0xB1 0xD6 0xAA 0x01 0x00 0x0F 0xFE 0xE8 0x00 0x00 0x31 0xC6 0x6C 0x01 0x00 0x00 0x00 0x00 0x00 0x00 0x00 0x00 0x00 0x00 0x00 0x00 0x00 0x00 0x00 0x00
write to 0x70 ack data: 0xE7 0x30 0x00 0x04 0xB3
write to 0x70 ack data: 0xE7 0x40 0x00 0x04 0xB3
write to 0x70 ack data: 0xE7 0x50 0x00 0x04 0xB3
write to 0x70 ack data: 0xE7 0x60 0x00 0x04 0xB3
write to 0x70 ack data: 0xE7 0x70 0x00 0x04 0xB3
write to 0x70 ack data: 0xE7 0x80 0x00 0x04 0xB3
write to 0x70 ack data: 0xE7 0x90 0x00 0x04 0xB3
write to 0x70 ack data: 0xE7 0xA0 0x00 0x04 0xB3
write to 0x70 ack data: 0x10 0x00 0x00 0x00 0x00 0x00 0x00 0x00 0x00 0x00 0x00 0x00 0x8E 0x10 0x42 0x88 0x03 0x2E 0x06 0x07 0xA3 0x03 0x8E 0x10 0x42 0x88 0x03 0x2E 0xC6 0x18 0xA3 0x03 0x00 0x00 0x00 0x00 0x00 0x2E 0xC6 0x18 0x63 0x04 0x10 0xFA 0xE8 0x01 0x00 0x2F 0xC6 0xF8 0x42 0x00 0x2F 0xBE 0xE0 0x00 0x00 0xA2 0x10 0xF2 0x08 0x01 0x0F 0xFE 0xE8 0x00 0x00 0x00 0x00 0x00 0x00 0x00 0x00 0x00 0x00 0x00 0x00 0x00 0x00 0x00 0x00 0x00
write to 0x70 ack data: 0x01 0x0F 0x8E 0x00 0x00 0x00 0x00
write to 0x70 ack data: 0x0F 0x00 0x00 0x00 0x00 0x00 0x00 0x1F 0x42 0x08 0x21 0x04 0x2F 0xBE 0xE0 0x00 0x00 0x2F 0xC6 0xF8 0x42 0x00 0x0F 0xFE 0xE8 0x00 0x00 0x00 0x00 0x00 0x00 0x00 0x8E 0x10 0x42 0x88 0x03 0x2E 0x06 0x07 0xA3 0x03 0x8E 0x10 0x42 0x88 0x03 0x2E 0xC6 0x18 0xA3 0x03 0x00 0x00 0x00 0x00 0x00 0x00 0x00 0x00 0x00 0x00 0x2E 0xC6 0x18 0xA3 0x03 0x63 0x22 0x22 0x32 0x06 0x00 0x00 0x00 0x00 0x00
write to 0x70 ack data: 0x01 0x0F 0x8E 0x00 0x45 0x00 0x00
write to 0x70 ack data: 0x01 0x0F 0x8E 0x00 0x45 0xA2 0x03
write to 0x70 ack data: 0x01 0x0F 0x8E 0x00 0x45 0xA2 0x03
write to 0x70 ack data: 0x10 0x00 0x00 0x00 0x00 0x00 0x00 0x1F 0x42 0x08 0x21 0x04 0x2F 0xBE 0xE0 0x00 0x00 0x2F 0xC6 0xF8 0x42 0x00 0x0F 0xFE 0xE8 0x00 0x00 0x00 0x00 0x00 0x00 0x00 0x8E 0x10 0x42 0x88 0x03 0x2E 0x06 0x07 0xA3 0x03 0x8E 0x10 0x42 0x88 0x03 0x2E 0xC6 0x18 0xA3 0x03 0x00 0x00 0x00 0x00 0x00 0x00 0x00 0x00 0x00 0x00 0x2E 0xC6 0x18 0xA3 0x03 0x63 0x22 0x22 0x32 0x06 0x00 0x00 0x00 0x00 0x00 0x00 0x00 0x00 0x00 0x00
write to 0x70 ack data: 0x10 0x00 0x00 0x00 0x00 0x00 0x00 0x1F 0x42 0x08 0x21 0x04 0x2F 0xBE 0xE0 0x00 0x00 0x2F 0xC6 0xF8 0x42 0x00 0x0F 0xFE 0xE8 0x00 0x00 0x00 0x00 0x00 0x00 0x00 0x8E 0x10 0x42 0x88 0x03 0x2E 0x06 0x07 0xA3 0x03 0x8E 0x10 0x42 0x88 0x03 0x2E 0xC6 0x18 0xA3 0x03 0x00 0x00 0x00 0x00 0x00 0x00 0x00 0x00 0x00 0x00 0x8E 0x10 0x42 0x18 0x01 0x63 0x22 0x22 0x32 0x06 0x00 0x00 0x00 0x00 0x00 0x00 0x00 0x00 0x00 0x00
write to 0x70 ack data: 0x10 0x00 0x00 0x00 0x00 0x00 0x00 0x1F 0x42 0x08 0x21 0x04 0x2F 0xBE 0xE0 0x00 0x00 0x2F 0xC6 0xF8 0x42 0x00 0x0F 0xFE 0xE8 0x00 0x00 0x00 0x00 0x00 0x00 0x00 0x8E 0x10 0x42 0x88 0x03 0x2E 0x06 0x07 0xA3 0x03 0x8E 0x10 0x42 0x88 0x03 0x2E 0xC6 0x18 0xA3 0x03 0x00 0x00 0x00 0x00 0x00 0x00 0x00 0x00 0x00 0x00 0x1F 0x11 0x11 0xA2 0x03 0x63 0x22 0x22 0x32 0x06 0x00 0x00 0x00 0x00 0x00 0x00 0x00 0x00 0x00 0x00
write to 0x70 ack data: 0x10 0x00 0x00 0x00 0x00 0x00 0x00 0x1F 0x42 0x08 0x21 0x04 0x2F 0xBE 0xE0 0x00 0x00 0x2F 0xC6 0xF8 0x42 0x00 0x0F 0xFE 0xE8 0x00 0x00 0x00 0x00 0x00 0x00 0x00 0x8E 0x10 0x42 0x88 0x03 0x2E 0x06 0x07 0xA3 0x03 0x8E 0x10 0x42 0x88 0x03 0x2E 0xC6 0x18 0xA3 0x03 0x00 0x00 0x00 0x00 0x00 0x00 0x00 0x00 0x00 0x00 0x2E 0x06 0x13 0xA2 0x03 0x63 0x22 0x22 0x32 0x06 0x00 0x00 0x00 0x00 0x00 0x00 0x00 0x00 0x00 0x00
write to 0x70 ack data: 0x10 0x00 0x00 0x00 0x00 0x00 0x00 0x1F 0x42 0x08 0x21 0x04 0x2F 0xBE 0xE0 0x00 0x00 0x2F 0xC6 0xF8 0x42 0x00 0x0F 0xFE 0xE8 0x00 0x00 0x00 0x00 0x00 0x00 0x00 0x8E 0x10 0x42 0x88 0x03 0x2E 0x06 0x07 0xA3 0x03 0x8E 0x10 0x42 0x88 0x03 0x2E 0xC6 0x18 0xA3 0x03 0x00 0x00 0x00 0x00 0x00 0x00 0x00 0x00 0x00 0x00 0x42 0x7C 0xA9 0x8C 0x00 0x63 0x22 0x22 0x32 0x06 0x00 0x00 0x00 0x00 0x00 0x00 0x00 0x00 0x00 0x00
write to 0x70 ack data: 0x10 0x00 0x00 0x00 0x00 0x00 0x00 0x1F 0x42 0x08 0x21 0x04 0x2F 0xBE 0xE0 0x00 0x00 0x2F 0xC6 0xF8 0x42 0x00 0x0F 0xFE 0xE8 0x00 0x00 0x00 0x00 0x00 0x00 0x00 0x8E 0x10 0x42 0x88 0x03 0x2E 0x06 0x07 0xA3 0x03 0x8E 0x10 0x42 0x88 0x03 0x2E 0xC6 0x18 0xA3 0x03 0x00 0x00 0x00 0x00 0x00 0x00 0x00 0x00 0x00 0x00 0x2E 0x86 0xE0 0xE1 0x07 0x63 0x22 0x22 0x32 0x06 0x00 0x00 0x00 0x00 0x00 0x00 0x00 0x00 0x00 0x00
write to 0x70 ack data: 0x01 0x0F 0x8E 0x00 0x00 0x00 0x00
write to 0x70 ack data: 0x0F 0x00 0x00 0x00 0x00 0x00 0x00 0x00 0x00 0x00 0x00 0x00 0x8E 0x10 0x42 0x88 0x03 0x2E 0x06 0x07 0xA3 0x03 0x8E 0x10 0x42 0x88 0x03 0x2E 0xC6 0x18 0xA3 0x03 0x00 0x00 0x00 0x00 0x00 0x2E 0xC6 0x18 0x63 0x04 0x10 0xFA 0xE8 0x01 0x00 0x2F 0xC6 0xF8 0x42 0x00 0x2F 0xBE 0xE0 0x00 0x00 0xA2 0x10 0xF2 0x08 0x01 0x0F 0xFE 0xE8 0x00 0x00 0x00 0x00 0x00 0x00 0x00 0x00 0x00 0x00 0x00 0x00
write to 0x70 ack data: 0x0F 0x00 0x00 0x00 0x00 0x00 0x00 0x3E 0x46 0x1F 0xA3 0x07 0x8E 0x10 0xC2 0x00 0x01 0xA2 0x10 0xF2 0x08 0x01 0xA2 0x10 0xF2 0x08 0x01 0x0F 0xFE 0xE8 0x00 0x00 0x00 0x00 0x00 0x00 0x00 0x71 0xD7 0x1A 0x01 0x00 0x2F 0xBE 0xE0 0x00 0x00 0x10 0xC2 0x6C 0x01 0x00 0xA2 0x10 0xF2 0x08 0x01 0x0F 0xFE 0xE8 0x00 0x00 0x31 0xC6 0x6C 0x01 0x00 0x15 0x00 0x00 0x00 0x00 0x00 0x00 0x00 0x00 0x00
write to 0x70 ack data: 0x01 0x0F 0x8E 0x00 0x45 0x00 0x00
write to 0x70 ack data: 0x01 0x0F 0x8E 0x00 0x45 0xA2 0x03
write to 0x70 ack data: 0x0F 0x00 0x00 0x00 0x00 0x00 0x00 0x00 0x00 0x00 0x00 0x00 0x8E 0x10 0x42 0x88 0x03 0x2E 0x06 0x07 0xA3 0x03 0x8E 0x10 0x42 0x88 0x03 0x2E 0xC6 0x18 0xA3 0x03 0x00 0x00 0x00 0x00 0x00 0x2E 0xC6 0x18 0x63 0x04 0x10 0xFA 0xE8 0x01 0x00 0x2F 0xC6 0xF8 0x42 0x00 0x2F 0xBE 0xE0 0x00 0x00 0xA2 0x10 0xF2 0x08 0x01 0x0F 0xFE 0xE8 0x00 0x00 0x00 0x00 0x00 0x00 0x00 0x00 0x00 0x00 0x00 0x00
write to 0x70 ack data: 0x0F 0x00 0x00 0x00 0x00 0x00 0x00 0x00 0x00 0x00 0x00 0x00 0x8E 0x10 0x42 0x88 0x03 0x2E 0x06 0x07 0xA3 0x03 0x8E 0x10 0x42 0x88 0x03 0x2E 0xC6 0x18 0xA3 0x03 0x00 0x00 0x00 0x00 0x00 0x2E 0xC6 0x18 0x63 0x04 0x10 0xFA 0xE8 0x01 0x00 0x2F 0xC6 0xF8 0x42 0x00 0x2F 0xBE 0xE0 0x00 0x00 0xA2 0x10 0xF2 0x08 0x01 0x0F 0xFE 0xE8 0x00 0x00 0x00 0x00 0x00 0x00 0x00 0x00 0x00 0x00 0x00 0x00
write to 0x70 ack data: 0x01 0x0F 0x8E 0x00 0x45 0xA2 0x03
write to 0x70 ack data: 0x10 0x00 0x00 0x00 0x00 0x00 0x00 0x00 0x00 0x00 0x00 0x00 0x8E 0x10 0x42 0x88 0x03 0x2E 0x06 0x07 0xA3 0x03 0x8E 0x10 0x42 0x88 0x03 0x2E 0xC6 0x18 0xA3 0x03 0x00 0x00 0x00 0x00 0x00 0x2E 0xC6 0x18 0x63 0x04 0x10 0xFA 0xE8 0x01 0x00 0x2F 0xC6 0xF8 0x42 0x00 0x2F 0xBE 0xE0 0x00 0x00 0xA2 0x10 0xF2 0x08 0x01 0x0F 0xFE 0xE8 0x00 0x00 0x00 0x00 0x00 0x00 0x00 0x00 0x00 0x00 0x00 0x00 0x00 0x00 0x00 0x00 0x00
write to 0x70 ack data: 0x01 0x0F 0x8E 0x00 0x00 0x00 0x00
write to 0x70 ack data: 0x0F 0x00 0x10 0x42 0x1F 0xA3 0x07 0x8E 0x10 0x42 0x18 0x01 0x00 0x00 0x00 0x00 0x00 0x5C 0xC6 0x18 0x25 0x07 0x2F 0xBE 0xE0 0x00 0x00 0x3E 0x38 0xF8 0x00 0x00 0x00 0x00 0x00 0x00 0x00 0x1F 0x42 0x0F 0xE1 0x07 0x10 0xC2 0x6C 0x01 0x00 0x3E 0x38 0xF8 0x00 0x00 0xA2 0x10 0xF2 0x08 0x01 0x0F 0xFE 0xE8 0x00 0x00 0x00 0x00 0x00 0x00 0x00 0x15 0x00 0x00 0x00 0x00 0x00 0x00 0x00 0x00 0x00
write to 0x70 ack data: 0x01 0x0F 0x8E 0x00 0x45 0x00 0x00
write to 0x70 ack data: 0x01 0x0F 0x8E 0x00 0x45 0xA2 0x03
write to 0x70 ack data: 0x01 0x0F 0x8E 0x00 0x45 0xA2 0x03
write to 0x70 ack data: 0x10 0x00 0x10 0x42 0x1F 0xA3 0x07 0x8E 0x10 0x42 0x18 0x01 0x00 0x00 0x00 0x00 0x00 0x5C 0xC6 0x18 0x25 0x07 0x2F 0xBE 0xE0 0x00 0x00 0x3E 0x38 0xF8 0x00 0x00 0x00 0x00 0x00 0x00 0x00 0x1F 0x42 0x0F 0xE1 0x07 0x10 0xC2 0x6C 0x01 0x00 0x3E 0x38 0xF8 0x00 0x00 0xA2 0x10 0xF2 0x08 0x01 0x0F 0xFE 0xE8 0x00 0x00 0x00 0x00 0x00 0x00 0x00 0x31 0xC6 0x1F 0x63 0x04 0x5C 0xC6 0x18 0x25 0x07 0x00 0x00 0x00 0x00 0x00
write to 0x70 ack data: 0x10 0x00 0x00 0x00 0x00 0x00 0x00 0x00 0x00 0x00 0x00 0x00 0x5C 0xC6 0x18 0x25 0x07 0x2F 0xBE 0xE0 0x00 0x00 0x3E 0x38 0xF8 0x00 0x00 0x00 0x00 0x00 0x00 0x00 0x1F 0x42 0x0F 0xE1 0x07 0x10 0xC2 0x6C 0x01 0x00 0x3E 0x38 0xF8 0x00 0x00 0xA2 0x10 0xF2 0x08 0x01 0x0F 0xFE 0xE8 0x00 0x00 0x00 0x00 0x00 0x00 0x00 0x31 0xC6 0x1F 0x63 0x04 0x5C 0xC6 0x18 0x25 0x07 0x00 0x00 0x00 0x00 0x00 0x00 0x00 0x00 0x00 0x00
write to 0x70 ack data: 0x10 0x00 0x00 0x00 0x00 0x00 0x00 0x00 0x00 0x00 0x00 0x00 0x51 0x52 0x4C 0x65 0x04 0x0F 0xFE 0xE8 0x00 0x00 0x8E 0x10 0xC2 0x00 0x01 0x31 0xC6 0x6C 0x01 0x00 0x00 0x00 0x00 0x00 0x00 0x2E 0x06 0x07 0xA3 0x03 0x8E 0x10 0xC2 0x00 0x01 0x2E 0x9C 0x74 0x00 0x00 0x31 0xC6 0x6C 0x01 0x00 0x2F 0xBE 0xE0 0x00 0x00 0x8E 0x10 0x42 0x08 0x03 0x04 0x00 0x42 0x08 0x01 0x00 0x00 0x00 0x00 0x00 0x00 0x00 0x00 0x00 0x00
write to 0x70 ack data: 0x01 0x0F 0x8E 0x00 0x00 0x00 0x00
write to 0x70 ack data: 0x0F 0x00 0x10 0x42 0x1F 0xA3 0x07 0x8E 0x10 0x42 0x18 0x01 0x00 0x00 0x00 0x00 0x00 0x5C 0xC6 0x18 0x25 0x07 0x2F 0xBE 0xE0 0x00 0x00 0x3E 0x38 0xF8 0x00 0x00 0x00 0x00 0x00 0x00 0x00 0x1F 0x42 0x0F 0xE1 0x07 0x10 0xC2 0x6C 0x01 0x00 0x3E 0x38 0xF8 0x00 0x00 0xA2 0x10 0xF2 0x08 0x01 0x0F 0xFE 0xE8 0x00 0x00 0x00 0x00 0x00 0x00 0x00 0x15 0x00 0x00 0x00 0x00 0x00 0x00 0x00 0x00 0x00
write to 0x70 ack data: 0x0F 0x00 0x00 0x00 0x00 0x00 0x00 0x2E 0x06 0x07 0xA3 0x03 0x8E 0x10 0xC2 0x00 0x01 0x0F 0x42 0xF8 0x00 0x00 0x31 0xC6 0x6C 0x21 0x04 0x0F 0xFE 0xE8 0x00 0x00 0x10 0xC2 0x6C 0x01 0x00 0x0F 0xFE 0xE8 0x00 0x00 0x00 0x00 0x00 0x00 0x00 0x5C 0xC6 0x18 0x25 0x07 0x2F 0xBE 0xE0 0x00 0x00 0xA2 0x10 0xF2 0x08 0x01 0x0F 0xFE 0xE8 0x00 0x00 0x31 0xC6 0x6C 0x01 0x00 0x00 0x00 0x00 0x00 0x00
write to 0x70 ack data: 0x01 0x0F 0x8E 0x00 0x45 0x00 0x00
write to 0x70 ack data: 0xE7 0x30 0x2A 0x38 0x80
write to 0x70 ack data: 0xED 0x05 0x13 0x00 0x00
write to 0x70 ack data: 0x0F 0x00 0x00 0x00 0x00 0x00 0x00 0x00 0x00 0x00 0x00 0x00 0x00 0x00 0x00 0x00 0x00 0x00 0x00 0x00 0x00 0x00 0x00 0x00 0x00 0x00 0x00 0x00 0x80 0x0F 0x00 0x00 0x00 0x80 0x0F 0x00 0x00 0x04 0x00 0x40 0x00 0x00 0x00 0x80 0x0F 0x00 0x00 0x00 0x80 0x0F 0x00 0x00 0x00 0x00 0x00 0x00 0x00 0x00 0x00 0x00 0x00 0x00 0x00 0x00 0x00 0x00 0x00 0x00 0x00 0x00 0x00 0x00 0x00 0x00 0x00 0x00 0x00
write to 0x70 ack data: 0x01 0x0F 0x8E 0x00 0x45 0xA2 0x03
write to 0x70 ack data: 0x01 0x0F 0x8E 0x00 0x45 0xA2 0x03
write to 0x70 ack data: 0x10 0x00 0x00 0x00 0x00 0x00 0x00 0x00 0x00 0x00 0x00 0x00 0x00 0x00 0x00 0x00 0x00 0x00 0x00 0x00 0x00 0x00 0x00 0x00 0x00 0x00 0x00 0x00 0x80 0x0F 0x00 0x00 0x00 0x80 0x0F 0x00 0x00 0x04 0x00 0x40 0x00 0x00 0x00 0x80 0x0F 0x00 0x00 0x00 0x80 0x0F 0x00 0x00 0x00 0x00 0x00 0x00 0x00 0x00 0x00 0x00 0x00 0x00 0x00 0x00 0x00 0x00 0x00 0x00 0x00 0x00 0x00 0x00 0x00 0x00 0x00 0x00 0x00 0x00 0x00 0x00 0x00 0x00